#  HZ   S   RI   R     50.00 
! Rohde & Schwarz Vector Network Analyzer 
! Rohde-Schwarz,ZNB20-4Port,1311601064100104,2.70
! Created: UTC 10/26/2016, 10:54:18 PM
! freq[Hz]                re:S11                  im:S11                  re:S21                  im:S21                  re:S12                  im:S12                  re:S22                  im:S22
 1.000000000000000E5    -4.650286138057709E-1    4.089071974158287E-2    4.707356989383698E-1   -4.737751930952072E-2    5.465584397315979E-1   -4.952538013458252E-2   -4.800232648849487E-1    1.139849647879601E-1
 1.000995000000000E8    -5.171534419059753E-1    7.184606045484543E-2    5.352101922035217E-1   -8.885499089956284E-2    5.008977055549622E-1   -9.307128190994263E-2   -4.156815409660339E-1    1.760417819023132E-1
 2.000990000000000E8    -4.624612033367157E-1    1.333507001399994E-1    4.996234774589539E-1   -1.963770687580109E-1    4.977825880050659E-1   -1.907065361738205E-1   -2.880096733570099E-1    2.299540787935257E-1
 3.000985000000000E8    -4.435703158378601E-1    1.860380917787552E-1    4.313593506813049E-1   -2.977156937122345E-1    4.693158864974976E-1   -2.516992092132568E-1   -1.597633957862854E-1    2.152875810861588E-1
 4.000980000000000E8    -3.113213777542114E-1    2.283112853765488E-1    3.837676346302033E-1   -3.665494918823242E-1    3.731837868690491E-1   -3.479996025562286E-1   -1.175147518515587E-1    1.448497474193573E-1
 5.000975000000000E8    -2.446680366992950E-1    2.753877043724060E-1    3.236669003963471E-1   -3.939979672431946E-1    2.976357936859131E-1   -4.565667510032654E-1   -1.025895401835442E-1    1.081241741776466E-1
 6.000970000000000E8    -1.689280867576599E-1    2.611966133117676E-1    2.426091581583023E-1   -5.124595165252686E-1    2.309855818748474E-1   -4.835723340511322E-1   -9.061937779188156E-2    6.829798221588135E-2
 7.000965000000000E8    -8.638388663530350E-2    2.062468528747559E-1    1.204829812049866E-1   -5.098062753677368E-1    1.135804802179337E-1   -5.955058932304382E-1   -1.249203756451607E-1    4.103361070156097E-2
 8.000960000000000E8    -2.296591363847256E-2    1.162484884262085E-1   -1.233956031501293E-2   -5.785503983497620E-1   -1.319809630513191E-2   -5.154919028282166E-1   -1.253149807453156E-1    3.337892144918442E-2
 9.000955000000000E8     5.418644286692143E-3    2.854183688759804E-2   -1.464731395244598E-1   -5.165286660194397E-1   -1.551270186901093E-1   -5.831109881401062E-1   -1.290121376514435E-1    2.538190037012100E-2
 1.000095000000000E9    -1.633206498809159E-3   -7.080236822366715E-2   -2.902536094188690E-1   -5.016920566558838E-1   -2.693555653095245E-1   -4.558832347393036E-1   -1.317293047904968E-1    1.742575876414776E-2
 1.100094500000000E9    -4.928623512387276E-2   -1.468084901571274E-1   -3.753316998481751E-1   -4.564439952373505E-1   -3.546146154403687E-1   -4.461606740951538E-1   -1.639190912246704E-1   -3.978914464823902E-4
 1.200094000000000E9    -1.222496405243874E-1   -2.300209999084473E-1   -4.095991551876068E-1   -3.472020328044891E-1   -4.133293330669403E-1   -3.176785409450531E-1   -1.863820254802704E-1   -2.133519761264324E-2
 1.300093500000000E9    -2.233693748712540E-1   -2.544601857662201E-1   -4.523896276950836E-1   -2.193564921617508E-1   -4.705063104629517E-1   -2.075112909078598E-1   -2.256393879652023E-1   -4.108295589685440E-2
 1.400093000000000E9    -2.969967722892761E-1   -2.547541260719299E-1   -5.191507935523987E-1   -1.083417683839798E-1   -4.561731815338135E-1   -1.056350916624069E-1   -3.267671763896942E-1   -2.451318874955177E-2
 1.500092500000000E9    -4.240844845771790E-1   -2.395292371511459E-1   -4.640654623508453E-1   -1.435877988114953E-3   -5.381696224212647E-1   -9.702796814963222E-4   -3.978893160820007E-1    6.391790509223938E-2
 1.600092000000000E9    -4.912039041519165E-1   -1.771270632743835E-1   -4.618768692016602E-1    8.499253541231155E-2   -4.366686642169952E-1    8.460394293069840E-2   -4.307014048099518E-1    2.362779229879379E-1
 1.700091500000000E9    -5.008114576339722E-1   -1.149118244647980E-1   -4.387009143829346E-1    1.713994443416596E-1   -4.703702926635742E-1    1.613009423017502E-1   -2.994922101497650E-1    3.788650929927826E-1
 1.800091000000000E9    -5.381672978401184E-1   -2.960686758160591E-2   -4.393416643142700E-1    2.350406497716904E-1   -4.072619676589966E-1    2.349494546651840E-1   -1.212474629282951E-1    3.387634754180908E-1
 1.900090500000000E9    -4.770650565624237E-1    5.371921509504318E-2   -3.437378406524658E-1    2.994736135005951E-1   -4.018830955028534E-1    3.068410754203796E-1   -2.192077413201332E-2    2.673317492008209E-1
 2.000090000000000E9    -4.738007187843323E-1    1.449176371097565E-1   -2.927450239658356E-1    3.734292984008789E-1   -2.837722599506378E-1    3.959163725376129E-1   -7.867788663133979E-4    1.921393573284149E-1
 2.100089500000000E9    -4.074440896511078E-1    1.826953291893005E-1   -2.026813179254532E-1    4.329644441604614E-1   -2.349550276994705E-1    4.153846800327301E-1   -2.035521529614925E-2    1.245007216930389E-1
 2.200089000000000E9    -3.154979944229126E-1    2.691412866115570E-1   -1.264867931604385E-1    4.601128399372101E-1   -1.186775192618370E-1    4.556609988212585E-1   -5.113036558032036E-2    1.006773039698601E-1
 2.300088500000000E9    -2.341660708189011E-1    2.662164568901062E-1   -1.311279088258743E-2    5.512757301330566E-1   -1.204952597618103E-2    5.481922030448914E-1   -7.496977597475052E-2    8.548868447542191E-2
 2.400088000000000E9    -1.226352676749229E-1    2.457445114850998E-1    1.044815480709076E-1    4.863125383853912E-1    1.184241771697998E-1    4.929891228675842E-1   -9.220052510499954E-2    8.169952034950256E-2
 2.500087500000000E9    -2.149127051234245E-2    1.671793460845947E-1    2.478330433368683E-1    4.763106405735016E-1    2.419327348470688E-1    5.032120347023010E-1   -1.036372855305672E-1    8.334323018789291E-2
 2.600087000000000E9     4.088779911398888E-2    6.477686017751694E-2    3.937331438064575E-1    4.346135556697846E-1    3.628413677215576E-1    3.974584043025971E-1   -1.079560965299606E-1    9.518045186996460E-2
 2.700086500000000E9     5.405574291944504E-2   -6.128495559096336E-2    4.230714738368988E-1    3.427138030529022E-1    4.890996515750885E-1    3.261564671993256E-1   -1.117332875728607E-1    8.081561326980591E-2
 2.800086000000000E9     1.134885661303997E-2   -1.619953960180283E-1    4.998451173305512E-1    2.072201520204544E-1    4.870126247406006E-1    1.829499155282974E-1   -1.331426054239273E-1    7.479144632816315E-2
 2.900085500000000E9    -6.557729840278626E-2   -2.397822737693787E-1    4.650018811225891E-1    6.943114846944809E-2    4.896432757377625E-1    6.762421131134033E-2   -1.725238710641861E-1    8.198202401399612E-2
 3.000085000000000E9    -1.503750234842300E-1   -2.818244099617004E-1    4.949133992195129E-1   -4.990294948220253E-2    5.092772841453552E-1   -5.412343516945839E-2   -2.659039199352264E-1    1.421973109245300E-1
 3.100084500000000E9    -2.419902682304382E-1   -3.015728890895844E-1    4.250732064247131E-1   -1.499790996313095E-1    4.563944637775421E-1   -1.392769515514374E-1   -2.461246252059937E-1    2.701308429241180E-1
 3.200084000000000E9    -3.725288510322571E-1   -2.714070677757263E-1    4.188566505908966E-1   -2.049867957830429E-1    3.709464967250824E-1   -2.120045125484467E-1   -2.083984911441803E-1    4.313331842422485E-1
 3.300083500000000E9    -4.480650126934052E-1   -2.267138659954071E-1    3.371526002883911E-1   -2.425510436296463E-1    3.307789564132690E-1   -2.544201910495758E-1   -6.346212700009346E-3    4.798870384693146E-1
 3.400083000000000E9    -4.257997572422028E-1   -1.377096623182297E-1    3.379503786563873E-1   -3.045573234558106E-1    3.385879993438721E-1   -3.430536389350891E-1    1.494711041450501E-1    3.448853790760040E-1
 3.500082500000000E9    -4.189206063747406E-1   -5.525709316134453E-2    2.339128702878952E-1   -4.473069012165070E-1    2.638286054134369E-1   -4.123775362968445E-1    1.811490207910538E-1    1.979364603757858E-1
 3.600082000000000E9    -4.041399955749512E-1    3.662906214594841E-2    1.504160314798355E-1   -4.877952337265015E-1    1.736602783203125E-1   -5.029974579811096E-1    1.447274386882782E-1    1.280986815690994E-1
 3.700081500000000E9    -4.211923182010651E-1    1.019602045416832E-1    4.599737375974655E-2   -5.126338601112366E-1    5.677080154418945E-2   -4.914195835590363E-1    9.218449145555496E-2    8.422718942165375E-2
 3.800081000000000E9    -3.441785871982575E-1    1.647201031446457E-1   -5.965622141957283E-2   -5.578982234001160E-1   -6.368674337863922E-2   -4.972543716430664E-1    5.230676010251045E-2    8.589756488800049E-2
 3.900080500000000E9    -2.299646586179733E-1    1.869466900825501E-1   -1.687983423471451E-1   -5.373899936676025E-1   -1.701564788818359E-1   -4.824935793876648E-1    2.704630047082901E-2    1.068047508597374E-1
 4.000080000000000E9    -1.313230991363525E-1    1.827771812677383E-1   -2.986583113670349E-1   -4.536788463592529E-1   -2.847639024257660E-1   -4.308119416236877E-1    1.427318342030048E-2    1.112319231033325E-1
 4.100079500000000E9    -6.049551814794540E-2    1.640099436044693E-1   -3.712521791458130E-1   -3.870064318180084E-1   -4.144621789455414E-1   -3.558779060840607E-1    7.335835602134466E-3    1.263087391853333E-1
 4.200079000000000E9     9.733898565173149E-3    8.406285196542740E-2   -4.667840600013733E-1   -2.540293633937836E-1   -5.142546296119690E-1   -2.313352972269058E-1    2.719547774177045E-4    1.402583867311478E-1
 4.300078500000000E9     4.917122423648834E-2    6.248918827623129E-3   -5.462327003479004E-1   -1.045485585927963E-1   -5.836251974105835E-1   -1.181777641177177E-1   -1.092188339680433E-2    1.633499562740326E-1
 4.400078000000000E9     5.921323597431183E-2   -8.165357261896133E-2   -5.696470737457275E-1    4.027878120541573E-2   -5.404524803161621E-1    3.887544572353363E-2   -2.700612880289555E-2    1.649378240108490E-1
 4.500077500000000E9     3.925962746143341E-2   -1.872450709342957E-1   -5.138115882873535E-1    1.830921620130539E-1   -4.615894258022308E-1    1.599528193473816E-1   -3.319808840751648E-2    2.055090218782425E-1
 4.600077000000000E9    -2.421146258711815E-2   -2.777706086635590E-1   -4.195198416709900E-1    2.658767998218536E-1   -4.212263226509094E-1    2.918143868446350E-1   -1.792134344577789E-2    3.109952807426453E-1
 4.700076500000000E9    -1.459614485502243E-1   -3.317452669143677E-1   -3.018658459186554E-1    3.379287123680115E-1   -2.884787619113922E-1    3.563264012336731E-1    5.935315042734146E-2    3.755785226821899E-1
 4.800076000000000E9    -3.105003237724304E-1   -3.705984652042389E-1   -1.811263412237167E-1    3.438710272312164E-1   -1.919805109500885E-1    3.437988460063934E-1    1.791347861289978E-1    3.636648356914520E-1
 4.900075500000000E9    -4.204329252243042E-1   -2.477829009294510E-1   -1.058250293135643E-1    3.840970695018768E-1   -1.034678891301155E-1    3.814398646354675E-1    2.321909517049789E-1    2.585223317146301E-1
 5.000075000000000E9    -5.927907824516296E-1   -1.970915496349335E-2   -3.418973647058010E-3    3.292749524116516E-1   -5.541694816201925E-3    3.051857054233551E-1    2.633659839630127E-1    2.108477205038071E-1
 5.100074500000000E9    -3.433037102222443E-1    3.042010664939880E-1   -7.037810981273651E-3    1.575973629951477E-1   -6.841763388365507E-3    1.763847321271896E-1    2.307756245136261E-1    1.706614196300507E-1
 5.200074000000000E9     5.656540393829346E-2    9.826119989156723E-3   -1.548991501331329E-1    3.056808710098267E-1   -1.766109466552734E-1    3.242550790309906E-1    3.115030527114868E-1    7.946358621120453E-2
 5.300073500000000E9    -1.279755532741547E-1   -1.748481839895248E-1   -2.095506899058819E-2    4.910261332988739E-1   -2.265691012144089E-2    4.503335356712341E-1    1.589811891317368E-1    8.871326223015785E-3
 5.400073000000000E9    -2.392131537199020E-1   -1.256967633962631E-1    1.163239777088165E-1    4.732788503170013E-1    1.263740360736847E-1    4.673088788986206E-1    1.005727201700211E-1    3.830172866582871E-2
 5.500072500000000E9    -2.878711819648743E-1   -4.159751906991005E-2    2.509839236736298E-1    4.585973918437958E-1    2.687315046787262E-1    4.603216946125031E-1    7.191897928714752E-2    9.306053072214127E-2
 5.600072000000000E9    -2.887664735317230E-1    4.505562409758568E-2    3.809486627578735E-1    3.797487616539002E-1    3.273268640041351E-1    3.327226638793945E-1    6.763684749603272E-2    1.209652870893478E-1
 5.700071500000000E9    -2.332786768674851E-1    1.136166155338287E-1    4.323473274707794E-1    2.410450130701065E-1    4.864331483840942E-1    2.578183114528656E-1    7.612252235412598E-2    1.643162518739700E-1
 5.800071000000000E9    -1.393454372882843E-1    1.461745500564575E-1    5.472664833068848E-1    1.339591890573502E-1    5.189744830131531E-1    1.410540193319321E-1    8.812316507101059E-2    1.741015166044235E-1
 5.900070500000000E9    -3.815385207417421E-5    1.544457077980042E-1    5.204524397850037E-1   -1.718975789844990E-2    5.127916932106018E-1   -1.739695481956005E-2    8.833599835634232E-2    1.820368319749832E-1
 6.000070000000000E9     1.596858799457550E-1    8.466095663607121E-3    4.536831080913544E-1   -1.949152946472168E-1    5.471019744873047E-1   -2.069361954927445E-1    8.328283578157425E-2    1.997292339801788E-1
 6.100069500000000E9     1.771834939718247E-1    7.426599971950054E-3    5.102689862251282E-1   -2.172603905200958E-1    5.294075608253479E-1   -2.206635028123856E-1    8.032611757516861E-2    2.183489799499512E-1
 6.200069000000000E9     1.603434532880783E-1    7.812728174030781E-3    4.571257829666138E-1   -1.918937116861343E-1    4.821509718894959E-1   -1.955396085977554E-1    7.620715349912643E-2    1.977483183145523E-1
 6.300068500000000E9     1.558187752962112E-1    8.618390187621117E-3    4.717840850353241E-1   -1.980330199003220E-1    4.798484444618225E-1   -2.177271544933319E-1    8.338738977909088E-2    1.988179385662079E-1
 6.400068000000000E9     1.637195944786072E-1    8.708319626748562E-3    4.672458171844482E-1   -2.129069715738297E-1    5.101668834686279E-1   -2.175055295228958E-1    7.403367757797241E-2    2.108093351125717E-1
 6.500067500000000E9     1.712613552808762E-1    8.281645365059376E-3    5.248017907142639E-1   -1.967530399560928E-1    5.401607751846314E-1   -2.176289260387421E-1    7.425925135612488E-2    1.993602216243744E-1
 6.600067000000000E9     1.742130070924759E-1    8.903856389224529E-3    4.870605468750000E-1   -2.244305163621903E-1    5.448790788650513E-1   -2.155135422945023E-1    7.793674618005753E-2    2.004834413528442E-1
 6.700066500000000E9     1.536715030670166E-1    8.834598585963249E-3    5.161353349685669E-1   -2.077807635068893E-1    4.983634650707245E-1   -1.943559944629669E-1    8.145643025636673E-2    2.154119014739990E-1
 6.800066000000000E9     1.706385016441345E-1    8.377515710890293E-3    5.111625790596008E-1   -2.033805549144745E-1    5.276530981063843E-1   -2.219352275133133E-1    8.081745356321335E-2    1.922469139099121E-1
 6.900065500000000E9     1.559110134840012E-1    8.889324963092804E-3    4.910081923007965E-1   -1.867042630910873E-1    5.275459289550781E-1   -2.244837582111359E-1    7.862655073404312E-2    2.169614881277084E-1
 7.000065000000000E9     1.752931028604507E-1    8.721451275050640E-3    5.382543206214905E-1   -2.044632136821747E-1    5.403536558151245E-1   -2.195831388235092E-1    8.515183627605438E-2    2.193163931369782E-1
 7.100064500000000E9     1.626037955284119E-1    7.546887267380953E-3    5.050238370895386E-1   -2.005739808082581E-1    4.960731863975525E-1   -2.241362482309341E-1    8.170524239540100E-2    2.149257361888886E-1
 7.200064000000000E9     1.605170071125031E-1    7.619439624249935E-3    4.834158420562744E-1   -2.202984243631363E-1    5.168938040733337E-1   -2.087544351816177E-1    7.324609160423279E-2    1.847808212041855E-1
 7.300063500000000E9     1.591978967189789E-1    8.692340925335884E-3    5.364182591438294E-1   -2.051360905170441E-1    4.817896783351898E-1   -2.223419547080994E-1    7.159056514501572E-2    2.049825489521027E-1
 7.400063000000000E9     1.502596437931061E-1    8.050457574427128E-3    4.914580285549164E-1   -2.073229104280472E-1    4.564467370510101E-1   -1.917621493339539E-1    7.267004251480103E-2    2.139271646738052E-1
 7.500062500000000E9     1.685308814048767E-1    8.927623741328716E-3    4.986035525798798E-1   -1.950771957635880E-1    4.835777878761292E-1   -2.217765897512436E-1    7.543215155601502E-2    1.931021064519882E-1
 7.600062000000000E9     1.591363996267319E-1    7.858117111027241E-3    5.483560562133789E-1   -1.945826560258865E-1    5.363059043884277E-1   -1.987227350473404E-1    7.892715185880661E-2    1.895791143178940E-1
 7.700061500000000E9     1.573898196220398E-1    8.411670103669167E-3    4.532516002655029E-1   -1.884749680757523E-1    5.342116355895996E-1   -2.245517522096634E-1    7.344698160886765E-2    2.210766226053238E-1
 7.800061000000000E9     1.639953255653381E-1    8.954087272286415E-3    4.937807023525238E-1   -2.267450541257858E-1    5.224540829658508E-1   -1.895598918199539E-1    7.330272346735001E-2    1.861209422349930E-1
 7.900060500000000E9     1.705730259418488E-1    8.610351942479610E-3    5.225525498390198E-1   -2.112576812505722E-1    5.122489333152771E-1   -2.167412340641022E-1    8.020704239606857E-2    1.878076344728470E-1
 8.000060000000000E9     1.729791760444641E-1    8.523618802428246E-3    5.350227952003479E-1   -2.242281287908554E-1    4.844075441360474E-1   -2.035755217075348E-1    7.242946326732636E-2    2.090839892625809E-1
 8.100059500000000E9     1.724555045366287E-1    8.410521782934666E-3    5.006477236747742E-1   -1.987754404544830E-1    4.555618762969971E-1   -1.941721588373184E-1    8.317779004573822E-2    2.016266137361527E-1
 8.200059000000000E9     1.645844429731369E-1    8.229116909205914E-3    4.573063552379608E-1   -2.163181304931641E-1    5.067774653434753E-1   -2.201963514089584E-1    8.268596976995468E-2    2.206777185201645E-1
 8.300058500000000E9     1.485507488250732E-1    8.415314368903637E-3    4.678119719028473E-1   -1.874821186065674E-1    4.735471904277802E-1   -1.882088184356690E-1    7.642305642366409E-2    1.973369419574738E-1
 8.400058000000000E9     1.567292660474777E-1    8.687946945428848E-3    5.388235449790955E-1   -2.013024985790253E-1    5.011405944824219E-1   -2.260224521160126E-1    8.631747215986252E-2    2.061668634414673E-1
 8.500057500000000E9     1.745710521936417E-1    8.694038726389408E-3    5.021686553955078E-1   -2.165002524852753E-1    4.586757719516754E-1   -2.090213596820831E-1    7.844986021518707E-2    2.068400382995606E-1
 8.600057000000000E9     1.783121675252914E-1    8.859016932547092E-3    4.602104723453522E-1   -2.138138413429260E-1    5.195729136466980E-1   -1.993510574102402E-1    7.514074444770813E-2    1.994063556194305E-1
 8.700056500000000E9     1.604912281036377E-1    8.168797940015793E-3    4.916691780090332E-1   -1.877489835023880E-1    5.003597736358643E-1   -1.888522356748581E-1    8.660647273063660E-2    2.212636172771454E-1
 8.800056000000000E9     1.757770925760269E-1    8.701429702341557E-3    5.204164981842041E-1   -2.263947278261185E-1    4.662048518657684E-1   -2.184876799583435E-1    8.425436168909073E-2    1.858230084180832E-1
 8.900055500000000E9     1.471126228570938E-1    8.909497410058975E-3    5.477348566055298E-1   -2.234047502279282E-1    4.961589574813843E-1   -2.141070663928986E-1    7.906366139650345E-2    2.165002226829529E-1
 9.000055000000000E9     1.471721231937408E-1    8.560918271541596E-3    5.461863875389099E-1   -2.168531268835068E-1    5.110885500907898E-1   -1.987126767635346E-1    8.298367261886597E-2    2.096437364816666E-1
