#  HZ   S   RI   R     50.00 
! Rohde & Schwarz Vector Network Analyzer 
! Rohde-Schwarz,ZNBT8-16Port,1318700624100104,2.70
! Created: UTC 10/28/2016, 11:55:06 PM
! freq[Hz]                re:S11                  im:S11                  re:S12                  im:S12                  re:S13                  im:S13                  re:S14                  im:S14
!                         re:S21                  im:S21                  re:S22                  im:S22                  re:S23                  im:S23                  re:S24                  im:S24
!                         re:S31                  im:S31                  re:S32                  im:S32                  re:S33                  im:S33                  re:S34                  im:S34
!                         re:S41                  im:S41                  re:S42                  im:S42                  re:S43                  im:S43                  re:S44                  im:S44
! 
 1.000000000000000E5    -5.349653363227844E-1    3.907163441181183E-2    4.760329127311707E-1   -5.395094677805901E-2    4.678127467632294E-1   -4.464598372578621E-2    4.910238683223724E-1   -5.463880300521851E-2
                         5.354434847831726E-1   -4.779155552387238E-2   -4.902467727661133E-1    1.140553057193756E-1    5.152645111083984E-1   -7.991922646760941E-2    5.272933840751648E-1   -8.497270196676254E-2
                         4.785692691802979E-1   -4.945298656821251E-2    4.524385333061218E-1   -7.530351728200913E-2   -4.501922130584717E-1    1.118981316685677E-1    4.826992154121399E-1   -7.281397283077240E-2
                         4.766681790351868E-1   -4.879448190331459E-2    4.965977370738983E-1   -8.902384340763092E-2    4.438399374485016E-1   -7.481122016906738E-2   -4.370122253894806E-1    1.157102361321449E-1

 4.259950000000000E7    -5.101153850555420E-1    3.999220207333565E-2    5.102109909057617E-1   -4.858928918838501E-2    4.690127074718475E-1   -4.757095873355866E-2    4.811463057994843E-1   -4.413096606731415E-2
                         4.540607333183289E-1   -4.333650693297386E-2   -4.328722655773163E-1    1.048331931233406E-1    4.751026034355164E-1   -6.748205423355103E-2    4.847426116466522E-1   -8.592626452445984E-2
                         4.508182108402252E-1   -4.445409402251244E-2    5.062129497528076E-1   -7.809671014547348E-2   -4.673812687397003E-1    1.046577319502831E-1    4.914427101612091E-1   -6.976821273565292E-2
                         4.769808948040009E-1   -4.841569811105728E-2    4.873650074005127E-1   -7.496964931488037E-2    4.946331083774567E-1   -7.014341652393341E-2   -4.248273670673370E-1    1.030782908201218E-1

 8.509900000000000E7    -5.084617733955383E-1    6.757575273513794E-2    4.560248255729675E-1   -7.567382603883743E-2    4.751099348068237E-1   -8.163836598396301E-2    5.408068299293518E-1   -8.409025520086289E-2
                         5.315262675285339E-1   -7.861886918544769E-2   -4.153091311454773E-1    1.703898608684540E-1    4.312832653522492E-1   -1.099040210247040E-1    4.424929320812225E-1   -1.206806823611260E-1
                         5.088921785354614E-1   -7.408037036657333E-2    4.396126270294190E-1   -1.228038296103478E-1   -4.560483098030090E-1    1.628392189741135E-1    5.038603544235230E-1   -1.228467598557472E-1
                         5.039419531822205E-1   -8.442696928977966E-2    4.449918270111084E-1   -1.284037530422211E-1    4.610256552696228E-1   -1.136134788393974E-1   -4.714291691780090E-1    1.441982090473175E-1

 1.275985000000000E8    -4.661068916320801E-1    9.263710677623749E-2    5.256091356277466E-1   -1.245366111397743E-1    4.412287175655365E-1   -1.182604432106018E-1    4.905249476432800E-1   -1.074791252613068E-1
                         4.878325164318085E-1   -1.121888756752014E-1   -3.474251925945282E-1    1.928699910640717E-1    4.563471376895905E-1   -1.508136093616486E-1    3.869376480579376E-1   -1.844622194766998E-1
                         4.592267870903015E-1   -1.124311238527298E-1    4.123193621635437E-1   -1.489432007074356E-1   -3.909408152103424E-1    1.742469668388367E-1    3.910317122936249E-1   -1.523684859275818E-1
                         4.491856396198273E-1   -1.181351393461227E-1    4.537424743175507E-1   -1.622376739978790E-1    3.981339931488037E-1   -1.611364185810089E-1   -3.638944327831268E-1    2.015318721532822E-1

 1.700980000000000E8    -5.066419839859009E-1    1.117569506168366E-1    5.168545246124268E-1   -1.570788174867630E-1    4.479601681232452E-1   -1.604773402214050E-1    4.805326163768768E-1   -1.630687117576599E-1
                         4.827663302421570E-1   -1.651678532361984E-1   -2.888728380203247E-1    2.379634678363800E-1    4.193055927753449E-1   -1.766816824674606E-1    4.062466621398926E-1   -2.057090550661087E-1
                         4.628227651119232E-1   -1.570000648498535E-1    3.658738136291504E-1   -1.986691355705261E-1   -2.974561750888825E-1    2.053894996643066E-1    3.696092963218689E-1   -1.962857842445374E-1
                         4.453024864196777E-1   -1.576851755380631E-1    3.879524767398834E-1   -1.979366540908814E-1    3.868636488914490E-1   -1.897109299898148E-1   -3.075623214244843E-1    2.395801395177841E-1

 2.125975000000000E8    -4.151680171489716E-1    1.325353533029556E-1    4.997428953647614E-1   -1.802267432212830E-1    4.589139819145203E-1   -1.935892552137375E-1    5.097145438194275E-1   -2.037238180637360E-1
                         4.675490856170654E-1   -1.819086968898773E-1   -2.636338472366333E-1    2.317046970129013E-1    3.344364166259766E-1   -1.931985914707184E-1    3.287315666675568E-1   -2.314768135547638E-1
                         4.509086012840271E-1   -1.951170563697815E-1    3.562563657760620E-1   -2.087383717298508E-1   -2.387424856424332E-1    2.054061442613602E-1    3.569824397563934E-1   -2.289518266916275E-1
                         4.597904980182648E-1   -1.895767748355866E-1    3.083779513835907E-1   -2.238349020481110E-1    3.713958561420441E-1   -2.244460135698319E-1   -2.256347686052322E-1    2.129316627979279E-1

 2.550970000000000E8    -4.641646742820740E-1    1.876970082521439E-1    4.773942530155182E-1   -2.188470959663391E-1    4.373020827770233E-1   -2.286084741353989E-1    4.286256432533264E-1   -2.229735255241394E-1
                         4.151860773563385E-1   -2.064407467842102E-1   -1.906428635120392E-1    2.048619091510773E-1    2.774406373500824E-1   -2.370968610048294E-1    2.814137935638428E-1   -2.554763853549957E-1
                         4.907376170158386E-1   -2.242717444896698E-1    2.824388444423676E-1   -2.261588573455811E-1   -2.323210984468460E-1    2.087882310152054E-1    3.252571821212769E-1   -2.283693999052048E-1
                         4.517105817794800E-1   -2.543189525604248E-1    2.740500867366791E-1   -2.181906104087830E-1    3.349186182022095E-1   -2.084593772888184E-1   -2.240997701883316E-1    2.394328117370606E-1

 2.975965000000000E8    -4.018281698226929E-1    1.858578175306320E-1    4.767721891403198E-1   -2.763654887676239E-1    4.131015241146088E-1   -2.528203725814819E-1    4.013903141021729E-1   -2.570764422416687E-1
                         4.581203162670136E-1   -2.586883902549744E-1   -1.695524752140045E-1    2.052928805351257E-1    2.943582534790039E-1   -2.139075100421906E-1    2.505819499492645E-1   -2.643117308616638E-1
                         4.359924793243408E-1   -2.667857706546783E-1    2.897802591323853E-1   -2.114020138978958E-1   -1.837221980094910E-1    1.975215375423431E-1    2.855199575424194E-1   -2.439460754394531E-1
                         4.437110126018524E-1   -2.584579586982727E-1    2.536945044994354E-1   -2.273873239755631E-1    2.973428070545197E-1   -2.328115850687027E-1   -1.555261015892029E-1    2.029774934053421E-1

 3.400960000000000E8    -3.815405666828156E-1    2.110101729631424E-1    3.847537040710449E-1   -2.756645083427429E-1    4.236099421977997E-1   -3.048789799213409E-1    4.167001843452454E-1   -3.130154907703400E-1
                         4.198586940765381E-1   -3.234058618545532E-1   -1.365773081779480E-1    1.930471807718277E-1    2.375378012657166E-1   -2.427534759044647E-1    2.293259054422379E-1   -2.558815479278565E-1
                         3.903510272502899E-1   -3.160468041896820E-1    2.267049103975296E-1   -2.085631489753723E-1   -1.473616063594818E-1    1.710784137248993E-1    2.227126359939575E-1   -2.481026351451874E-1
                         3.861673176288605E-1   -2.983859479427338E-1    2.103786021471024E-1   -2.310261428356171E-1    2.568969428539276E-1   -2.449859380722046E-1   -1.390298157930374E-1    1.804181039333344E-1

 3.825955000000000E8    -3.370690345764160E-1    2.429586797952652E-1    3.957690894603729E-1   -3.730511069297791E-1    3.654196560382843E-1   -3.160430490970612E-1    3.917248249053955E-1   -3.483859002590179E-1
                         4.250876605510712E-1   -3.386992812156677E-1   -1.167921721935272E-1    1.583711653947830E-1    2.084689438343048E-1   -2.147729396820068E-1    1.974898427724838E-1   -2.530958652496338E-1
                         3.966488242149353E-1   -3.440465033054352E-1    2.146519273519516E-1   -2.307005822658539E-1   -1.329290866851807E-1    1.412856727838516E-1    2.155582606792450E-1   -2.452863454818726E-1
                         3.792327046394348E-1   -3.388363420963287E-1    2.129707634449005E-1   -2.340031713247299E-1    1.871241480112076E-1   -2.226145416498184E-1   -1.044389903545380E-1    1.683677732944489E-1

 4.250950000000000E8    -2.873997390270233E-1    2.592127919197083E-1    3.375764787197113E-1   -3.892843127250671E-1    3.646969497203827E-1   -3.442391753196716E-1    3.897887170314789E-1   -3.439016938209534E-1
                         3.579029738903046E-1   -3.730624616146088E-1   -9.808428585529327E-2    1.247306391596794E-1    1.835268884897232E-1   -2.359991073608398E-1    1.553908288478851E-1   -2.119881510734558E-1
                         3.713818490505219E-1   -3.895926475524902E-1    1.841172277927399E-1   -2.135873138904572E-1   -1.080646887421608E-1    9.803681820631027E-2    1.958768069744110E-1   -2.195419967174530E-1
                         3.691605031490326E-1   -3.432969450950623E-1    1.615993678569794E-1   -2.184618860483170E-1    1.658264100551605E-1   -2.362860739231110E-1   -9.493902325630188E-2    1.213049292564392E-1

 4.675945000000000E8    -2.591782510280609E-1    2.404709160327911E-1    3.085649013519287E-1   -4.440392553806305E-1    3.198732435703278E-1   -4.030102193355560E-1    3.617408573627472E-1   -4.284309148788452E-1
                         3.707511425018311E-1   -3.827566504478455E-1   -1.005818471312523E-1    1.266763508319855E-1    1.663862019777298E-1   -1.882807910442352E-1    1.490302085876465E-1   -2.347383052110672E-1
                         3.468540012836456E-1   -3.807861804962158E-1    1.560832411050797E-1   -2.259756773710251E-1   -9.573352336883545E-2    8.082699775695801E-2    1.499663442373276E-1   -2.115158438682556E-1
                         3.615828752517700E-1   -3.824550509452820E-1    1.311069875955582E-1   -2.082145959138870E-1    1.524297147989273E-1   -1.950532793998718E-1   -8.520834892988205E-2    1.059340760111809E-1

 5.100940000000000E8    -2.574896812438965E-1    2.338028699159622E-1    2.936797142028809E-1   -4.238709509372711E-1    2.870540320873261E-1   -4.599753618240356E-1    2.799792885780335E-1   -4.479534029960632E-1
                         2.844189405441284E-1   -4.328577518463135E-1   -9.465178102254868E-2    1.034555733203888E-1    1.238482967019081E-1   -1.907052844762802E-1    1.079092174768448E-1   -2.219811677932739E-1
                         2.763470709323883E-1   -3.990198671817780E-1    1.418646723031998E-1   -1.905921846628189E-1   -1.067410856485367E-1    6.393688917160034E-2    1.294673979282379E-1   -1.857297867536545E-1
                         2.970660924911499E-1   -4.342730343341827E-1    1.124410554766655E-1   -2.308357805013657E-1    1.204495131969452E-1   -1.740659922361374E-1   -9.628479927778244E-2    8.991571515798569E-2

 5.525935000000000E8    -1.953168213367462E-1    2.578508555889130E-1    2.535053789615631E-1   -4.693736732006073E-1    2.802115976810455E-1   -4.608694314956665E-1    2.566538155078888E-1   -4.594610929489136E-1
                         2.580764293670654E-1   -4.912301003932953E-1   -8.727864176034927E-2    7.893556356430054E-2    9.991219639778137E-2   -1.886811554431915E-1    9.899500012397766E-2   -1.854857504367828E-1
                         2.942508757114410E-1   -4.398034214973450E-1    1.185406371951103E-1   -1.770648211240768E-1   -1.101822480559349E-1    4.259366914629936E-2    1.181939095258713E-1   -1.627388894557953E-1
                         2.437956929206848E-1   -4.753630459308624E-1    9.469883888959885E-2   -2.135234028100967E-1    1.066805869340897E-1   -1.760462224483490E-1   -9.745656698942184E-2    6.880740821361542E-2

 5.950930000000000E8    -1.800217330455780E-1    2.594808936119080E-1    2.161900848150253E-1   -5.034716129302979E-1    2.441991269588471E-1   -4.746053814888001E-1    2.184478640556335E-1   -4.831230640411377E-1
                         2.486561089754105E-1   -5.246440768241882E-1   -1.072749942541122E-1    6.975335627794266E-2    9.529543668031693E-2   -1.660960316658020E-1    8.098114281892777E-2   -1.809718310832977E-1
                         2.217455506324768E-1   -5.494959354400635E-1    9.435568749904633E-2   -1.520537585020065E-1   -1.237470731139183E-1    2.192788384854794E-2    9.983859956264496E-2   -1.452072262763977E-1
                         2.124659419059753E-1   -5.252000689506531E-1    8.492276817560196E-2   -1.897317469120026E-1    8.578124642372131E-2   -1.441772729158402E-1   -1.065923348069191E-1    5.990894511342049E-2

 6.375925000000000E8    -1.289026141166687E-1    2.438044548034668E-1    1.667354702949524E-1   -5.340762138366699E-1    1.746528595685959E-1   -4.859555363655090E-1    1.788294464349747E-1   -5.634916424751282E-1
                         1.899582892656326E-1   -5.691885948181152E-1   -1.075987368822098E-1    5.737573653459549E-2    7.739859074354172E-2   -1.536374539136887E-1    6.918747723102570E-2   -1.791791915893555E-1
                         1.696221530437470E-1   -5.253440737724304E-1    7.557459920644760E-2   -1.367887705564499E-1   -1.129482164978981E-1    6.404947023838759E-3    8.180068433284760E-2   -1.283382773399353E-1
                         1.846503466367722E-1   -5.219385027885437E-1    6.413197517395020E-2   -1.492898911237717E-1    8.031696081161499E-2   -1.273414045572281E-1   -1.050316691398621E-1    3.813136741518974E-2

 6.800920000000000E8    -9.222097694873810E-2    1.940443515777588E-1    1.292984932661057E-1   -5.293541550636292E-1    1.344347149133682E-1   -5.641866326332092E-1    1.324858665466309E-1   -5.472287535667419E-1
                         1.326994448900223E-1   -4.928428232669830E-1   -1.174981668591499E-1    4.152222350239754E-2    7.045841962099075E-2   -1.086735203862190E-1    6.047400459647179E-2   -1.359785199165344E-1
                         1.266031265258789E-1   -5.243456959724426E-1    6.035832315683365E-2   -1.130617111921310E-1   -1.289177834987640E-1   -6.012625526636839E-3    6.648660451173782E-2   -1.185187697410584E-1
                         1.276105493307114E-1   -4.874196350574493E-1    6.199750304222107E-2   -1.463435143232346E-1    6.513368338346481E-2   -1.092980206012726E-1   -9.743805229663849E-2    3.616296872496605E-2

 7.225915000000000E8    -6.533005088567734E-2    1.896532475948334E-1    7.636097073554993E-2   -6.067273616790772E-1    7.629311829805374E-2   -5.273898839950562E-1    8.056683093309403E-2   -6.025719642639160E-1
                         8.505326509475708E-2   -6.093323230743408E-1   -1.117225810885429E-1    3.909675031900406E-2    6.092511489987373E-2   -1.027017757296562E-1    4.706560820341110E-2   -1.385903656482697E-1
                         7.655738294124603E-2   -5.979256033897400E-1    5.680787563323975E-2   -9.392243623733521E-2   -1.270573735237122E-1   -1.372953876852989E-2    5.625320225954056E-2   -9.604727476835251E-2
                         9.009078890085220E-2   -5.316520333290100E-1    4.728231206536293E-2   -1.304139196872711E-1    5.783369764685631E-2   -1.028743609786034E-1   -1.068829596042633E-1    2.437358163297176E-2

 7.650910000000000E8    -4.367707297205925E-2    1.444613933563232E-1    3.349363058805466E-2   -5.888479948043823E-1    2.851247228682041E-2   -5.969713926315308E-1    3.064588457345963E-2   -6.097366809844971E-1
                         3.253481164574623E-2   -5.976740121841431E-1   -1.150844693183899E-1    3.395247086882591E-2    5.413861572742462E-2   -7.503780722618103E-2    4.931201040744782E-2   -1.117410808801651E-1
                         2.825396507978439E-2   -5.923978090286255E-1    5.682422220706940E-2   -7.555230706930161E-2   -1.412967294454575E-1   -2.233896404504776E-2    5.725624784827232E-2   -7.838477939367294E-2
                         3.215242549777031E-2   -5.215566158294678E-1    4.753302410244942E-2   -1.151323541998863E-1    6.216403841972351E-2   -6.934575736522675E-2   -1.302000582218170E-1    1.860927045345306E-2

 8.075905000000000E8    -2.204417996108532E-2    1.165434345602989E-1   -2.170458249747753E-2   -5.491058826446533E-1   -2.572697587311268E-2   -5.361701846122742E-1   -2.618469297885895E-2   -6.134634613990784E-1
                        -2.536867372691631E-2   -5.867303013801575E-1   -1.313486844301224E-1    2.716999128460884E-2    5.824060738086700E-2   -4.493930935859680E-2    4.954659193754196E-2   -9.549956768751144E-2
                        -2.316699922084808E-2   -5.294237732887268E-1    5.693272128701210E-2   -4.764692112803459E-2   -1.579088121652603E-1   -3.044996596872807E-2    6.526774913072586E-2   -5.420401319861412E-2
                        -2.511342056095600E-2   -5.223721861839294E-1    5.207692831754684E-2   -7.971702516078949E-2    5.688694864511490E-2   -4.734209552407265E-2   -1.365500539541245E-1    1.710977964103222E-2

 8.500900000000000E8    -3.764084773138166E-3    7.041043788194656E-2   -7.438788563013077E-2   -6.160741448402405E-1   -7.367496937513351E-2   -5.715187788009644E-1   -7.255404442548752E-2   -5.393989682197571E-1
                        -8.469474315643311E-2   -5.226574540138245E-1   -1.365688145160675E-1    2.568284608423710E-2    6.780501455068588E-2   -2.715969458222389E-2    5.383019894361496E-2   -6.994528323411942E-2
                        -8.383648842573166E-2   -5.724744796752930E-1    6.668265163898468E-2   -2.450849115848541E-2   -1.364307850599289E-1   -3.628994151949883E-2    6.819020211696625E-2   -2.635786309838295E-2
                        -7.617067545652390E-2   -6.123619675636292E-1    4.778495058417320E-2   -6.764600425958633E-2    6.176180392503738E-2   -2.839773334562779E-2   -1.442213654518127E-1    1.354596856981516E-2

 8.925895000000000E8     4.352591931819916E-3    3.685644641518593E-2   -1.281701773405075E-1   -5.475566387176514E-1   -1.291837543249130E-1   -5.366503596305847E-1   -1.425444334745407E-1   -5.867003798484802E-1
                        -1.470233649015427E-1   -5.348710417747498E-1   -1.315099745988846E-1    2.895409986376762E-2    7.252413779497147E-2   -3.539251629263163E-3    5.672405660152435E-2   -4.564812406897545E-2
                        -1.477411836385727E-1   -5.328772068023682E-1    7.327751070261002E-2   -3.911270294338465E-3   -1.664595305919647E-1   -3.928229957818985E-2    7.024136185646057E-2   -4.788589198142290E-3
                        -1.294867396354675E-1   -5.815849900245667E-1    6.604811549186707E-2   -5.099274963140488E-2    6.927134841680527E-2   -5.190404132008553E-3   -1.280166059732437E-1    9.933094494044781E-3

